T2084 25242:140 SEGGER J-Link V6.44a Log File (0001ms, 9698ms total)
T2084 25242:140 DLL Compiled: Mar  8 2019 17:31:48 (0001ms, 9698ms total)
T2084 25242:140 Logging started @ 2020-03-25 17:20 (0001ms, 9698ms total)
T2084 25242:141 JLINK_SetWarnOutHandler(...) (0000ms, 9698ms total)
T2084 25242:141 JLINK_OpenEx(...)
Firmware: J-Link V9 compiled May 17 2019 09:50:41
Hardware: V9.50
S/N: 59521934
Feature(s): GDB, RDI, FlashBP, FlashDL, JFlash, RDDI
TELNET listener socket opened on port 19021WEBSRV 
Starting webserver (0088ms, 9786ms total)
T2084 25242:141 WEBSRV Webserver running on local port 19080 (0088ms, 9786ms total)
T2084 25242:141   returns O.K. (0088ms, 9786ms total)
T2084 25242:229 JLINK_GetEmuCaps()  returns 0xB9FF7BBF (0000ms, 9786ms total)
T2084 25242:231 JLINK_TIF_GetAvailable(...) (0002ms, 9788ms total)
T2084 25242:233 JLINK_SetErrorOutHandler(...) (0000ms, 9788ms total)
T2084 25242:233 JLINK_ExecCommand("ProjectFile = "C:\Users\Administrator\Desktop\TencentOS_Project\21TencentOS_Keil_Power management(¶þÊ®¶þ) - tickless\board\STM32L051C8T6\MDK-ARM\JLinkSettings.ini"", ...).   returns 0x00 (0003ms, 9791ms total)
T2084 25242:246 JLINK_ExecCommand("Device = STM32L051C8Tx", ...). Device "STM32L051C8" selected.  returns 0x00 (0008ms, 9799ms total)
T2084 25242:254 JLINK_ExecCommand("DisableConnectionTimeout", ...).   returns 0x01 (0000ms, 9799ms total)
T2084 25242:254 JLINK_GetHardwareVersion()  returns 0x17318 (0000ms, 9799ms total)
T2084 25242:254 JLINK_GetDLLVersion()  returns 64401 (0000ms, 9799ms total)
T2084 25242:254 JLINK_GetFirmwareString(...) (0000ms, 9799ms total)
T2084 25242:272 JLINK_GetDLLVersion()  returns 64401 (0000ms, 9799ms total)
T2084 25242:272 JLINK_GetCompileDateTime() (0000ms, 9799ms total)
T2084 25242:299 JLINK_GetFirmwareString(...) (0000ms, 9799ms total)
T2084 25242:304 JLINK_GetHardwareVersion()  returns 0x17318 (0000ms, 9799ms total)
T2084 25242:321 JLINK_TIF_Select(JLINKARM_TIF_SWD)  returns 0x00 (0007ms, 9806ms total)
T2084 25242:328 JLINK_SetSpeed(5000) (0001ms, 9807ms total)
T2084 25242:329 JLINK_GetId() >0x10B TIF>Found SW-DP with ID 0x0BC11477 >0x0D TIF> >0x28 TIF> >0x0D TIF> >0x28 TIF> >0x0D TIF> >0x28 TIF> >0x0D TIF> >0x28 TIF> >0x0D TIF> >0x21 TIF> >0x0D TIF> >0x28 TIF> >0x0D TIF> >0x28 TIF> >0x0D TIF> >0x28 TIF> >0x0D TIF> >0x21 TIF> >0x0D TIF> >0x21 TIF> >0x0D TIF> >0x28 TIF> >0x0D TIF> >0x21 TIF> >0x0D TIF> >0x21 TIF> >0x0D TIF> >0x28 TIF> >0x0D TIF> >0x28 TIF> >0x0D TIF> >0x28 TIF> >0x0D TIF> >0x21 TIF> >0x0D TIF> >0x21 TIF> >0x0D TIF> >0x28 TIF> >0x0D TIF>
 >0x28 TIF> >0x0D TIF> >0x28 TIF> >0x0D TIF> >0x28 TIF> >0x0D TIF> >0x28 TIF> >0x0D TIF> >0x21 TIF> >0x0D TIF> >0x21 TIF> >0x0D TIF> >0x28 TIF> >0x0D TIF> >0x21 TIF> >0x0D TIF> >0x21 TIF> >0x0D TIF> >0x28 TIF> >0x0D TIF> >0x28 TIF> >0x0D TIF> >0x28 TIF> >0x0D TIF> >0x21 TIF> >0x0D TIF> >0x21 TIF> >0x0D TIF> >0x28 TIF> >0x0D TIF> >0x28 TIF> >0x0D TIF> >0x28 TIF> >0x0D TIF> >0x21 TIF> >0x0D TIF> >0x21 TIF> >0x0D TIF> >0x28 TIF> >0x0D TIF> >0x28 TIF> >0x0D TIF> >0x28 TIF> >0x0D TIF> >0x21 TIF> >0x0D TIF>
 >0x21 TIF> >0x0D TIF> >0x28 TIF> >0x0D TIF> >0x21 TIF> >0x0D TIF> >0x21 TIF> >0x0D TIF> >0x28 TIF> >0x0D TIF> >0x21 TIF> >0x0D TIF> >0x21 TIF> >0x0D TIF> >0x28 TIF> >0x0D TIF> >0x21 TIF> >0x0D TIF> >0x21 TIF> >0x0D TIF> >0x28 TIF> >0x0D TIF> >0x21 TIF> >0x0D TIF> >0x21 TIF> >0x0D TIF> >0x28 TIF> >0x0D TIF> >0x21 TIF> >0x0D TIF> >0x21 TIF> >0x10B TIF>Found SW-DP with ID 0x0BC11477 >0x0D TIF> >0x28 TIF> >0x0D TIF> >0x28 TIF> >0x0D TIF> >0x28 TIF> >0x0D TIF> >0x28 TIF> >0x0D TIF> >0x21 TIF> >0x0D TIF>
 >0x28 TIF>Scanning AP map to find all available APs >0x0D TIF> >0x28 TIF> >0x0D TIF> >0x21 TIF> >0x0D TIF> >0x21 TIF> >0x0D TIF> >0x28 TIF> >0x0D TIF> >0x21 TIF> >0x0D TIF> >0x21 TIF>AP[1]: Stopped AP scan as end of AP map has been reachedAP[0]: AHB-AP (IDR: 0x04770031)Iterating through AP map to find AHB-AP to use >0x42 TIF> >0x28 TIF> >0x0D TIF> >0x28 TIF> >0x0D TIF> >0x21 TIF> >0x0D TIF> >0x21 TIF> >0x42 TIF> >0x28 TIF> >0x0D TIF> >0x28 TIF> >0x0D TIF> >0x28 TIF> >0x0D TIF> >0x21 TIF> >0x0D TIF>
 >0x21 TIF>AP[0]: Core foundAP[0]: AHB-AP ROM base: 0xF0000000 >0x0D TIF> >0x28 TIF> >0x0D TIF> >0x28 TIF> >0x0D TIF> >0x28 TIF> >0x0D TIF> >0x21 TIF> >0x0D TIF> >0x21 TIF>CPUID register: 0x410CC601. Implementer code: 0x41 (ARM)Found Cortex-M0 r0p1, Little endian. -- Max. mem block: 0x00010F28 -- CPU_ReadMem(4 bytes @ 0xE000EDF0) -- CPU_ReadMem(4 bytes @ 0xE0002000)FPUnit: 4 code (BP) slots and 0 literal slots -- CPU_ReadMem(4 bytes @ 0xE000EDFC) -- CPU_ReadMem(4 bytes @ 0xE0001000)
 -- CPU_WriteMem(4 bytes @ 0xE0001000)CoreSight components:ROMTbl[0] @ F0000000 -- CPU_ReadMem(16 bytes @ 0xF0000000) -- CPU_ReadMem(16 bytes @ 0xE00FFFF0) -- CPU_ReadMem(16 bytes @ 0xE00FFFE0)ROMTbl[0][0]: E00FF000, CID: B105100D, PID: 000BB4C0 ROM TableROMTbl[1] @ E00FF000 -- CPU_ReadMem(16 bytes @ 0xE00FF000) -- CPU_ReadMem(16 bytes @ 0xE000EFF0) -- CPU_ReadMem(16 bytes @ 0xE000EFE0)ROMTbl[1][0]: E000E000, CID: B105E00D, PID: 000BB008 SCS -- CPU_ReadMem(16 bytes @ 0xE0001FF0)
 -- CPU_ReadMem(16 bytes @ 0xE0001FE0)ROMTbl[1][1]: E0001000, CID: B105E00D, PID: 000BB00A DWT -- CPU_ReadMem(16 bytes @ 0xE0002FF0) -- CPU_ReadMem(16 bytes @ 0xE0002FE0)ROMTbl[1][2]: E0002000, CID: B105E00D, PID: 000BB00B FPB -- CPU is running -- CPU_WriteMem(4 bytes @ 0xE000EDF0) -- CPU is running -- CPU_WriteMem(4 bytes @ 0xE000EDFC)Reset: Halt core after reset via DEMCR.VC_CORERESET. >0x35 TIF>Reset: Reset device via AIRCR.SYSRESETREQ. -- CPU is running -- CPU_WriteMem(4 bytes @ 0xE000ED0C)
 >0x0D TIF> >0x28 TIF> -- CPU_ReadMem(4 bytes @ 0xE000EDF0) -- CPU_ReadMem(4 bytes @ 0xE000EDF0) -- CPU is running -- CPU_WriteMem(4 bytes @ 0xE000EDF0) -- CPU is running -- CPU_WriteMem(4 bytes @ 0xE000EDFC) -- CPU_ReadMem(4 bytes @ 0xE000EDF0) -- CPU_WriteMem(4 bytes @ 0xE0002000) -- CPU_ReadMem(4 bytes @ 0xE000EDFC) -- CPU_ReadMem(4 bytes @ 0xE0001000) -- CPU_WriteMem(4 bytes @ 0xE0001000) -- CPU_WriteMem(8192 bytes @ 0x20000000) >0x0D TIF> >0x21 TIF>  returns 0x0BC11477 (0648ms, 10455ms total)
T2084 25242:977 JLINK_GetDLLVersion()  returns 64401 (0000ms, 10455ms total)
T2084 25242:977 JLINK_CORE_GetFound()  returns 0x60000FF (0000ms, 10455ms total)
T2084 25242:977 JLINK_GetDebugInfo(0x100 = JLINKARM_ROM_TABLE_ADDR_INDEX) -- Value=0xF0000000  returns 0x00 (0000ms, 10455ms total)
T2084 25242:987 JLINK_GetDebugInfo(0x100 = JLINKARM_ROM_TABLE_ADDR_INDEX) -- Value=0xF0000000  returns 0x00 (0000ms, 10455ms total)
T2084 25242:987 JLINK_GetDebugInfo(0x101 = JLINKARM_DEBUG_INFO_ETM_ADDR_INDEX) -- Value=0x00000000  returns 0x00 (0000ms, 10455ms total)
T2084 25242:987 JLINK_ReadMemEx(0xE0041FF0, 0x0010 Bytes, ..., Flags = 0x02000004) -- CPU_ReadMem(16 bytes @ 0xE0041FF0) - Data: 00 00 00 00 00 00 00 00 00 00 00 00 00 00 00 00  returns 0x10 (0002ms, 10457ms total)
T2084 25242:989 JLINK_GetDebugInfo(0x102 = JLINKARM_DEBUG_INFO_MTB_ADDR_INDEX) -- Value=0x00000000  returns 0x00 (0000ms, 10457ms total)
T2084 25242:989 JLINK_GetDebugInfo(0x103 = JLINKARM_DEBUG_INFO_TPIU_ADDR_INDEX) -- Value=0x00000000  returns 0x00 (0000ms, 10457ms total)
T2084 25242:989 JLINK_ReadMemEx(0xE0040FF0, 0x0010 Bytes, ..., Flags = 0x02000004) -- CPU_ReadMem(16 bytes @ 0xE0040FF0) - Data: 00 00 00 00 00 00 00 00 00 00 00 00 00 00 00 00  returns 0x10 (0001ms, 10458ms total)
T2084 25242:990 JLINK_GetDebugInfo(0x104 = JLINKARM_DEBUG_INFO_ITM_ADDR_INDEX) -- Value=0xE0000000  returns 0x00 (0000ms, 10458ms total)
T2084 25242:990 JLINK_GetDebugInfo(0x105 = JLINKARM_DEBUG_INFO_DWT_ADDR_INDEX) -- Value=0xE0001000  returns 0x00 (0000ms, 10458ms total)
T2084 25242:990 JLINK_GetDebugInfo(0x106 = JLINKARM_DEBUG_INFO_FPB_ADDR_INDEX) -- Value=0xE0002000  returns 0x00 (0000ms, 10458ms total)
T2084 25242:990 JLINK_GetDebugInfo(0x107 = JLINKARM_DEBUG_INFO_NVIC_ADDR_INDEX) -- Value=0xE000E000  returns 0x00 (0000ms, 10458ms total)
T2084 25242:990 JLINK_GetDebugInfo(0x10C = JLINKARM_DEBUG_INFO_DBG_ADDR_INDEX) -- Value=0xE000EDF0  returns 0x00 (0000ms, 10458ms total)
T2084 25242:990 JLINK_GetDebugInfo(0x01 = Unknown) -- Value=0x00000000  returns 0x00 (0000ms, 10458ms total)
T2084 25242:990 JLINK_ReadMemU32(0xE000ED00, 0x0001 Items, ...) -- CPU_ReadMem(4 bytes @ 0xE000ED00) - Data: 01 C6 0C 41  returns 1 (0001ms, 10459ms total)
T2084 25242:991 JLINK_GetDebugInfo(0x10F = JLINKARM_DEBUG_INFO_HAS_CORTEX_M_SECURITY_EXT_INDEX) -- Value=0x00000000  returns 0x00 (0000ms, 10459ms total)
T2084 25242:991 JLINK_SetResetType(JLINKARM_CM3_RESET_TYPE_NORMAL)  returns JLINKARM_CM3_RESET_TYPE_NORMAL (0000ms, 10459ms total)
T2084 25242:991 JLINK_Reset() -- CPU_ReadMem(4 bytes @ 0x20000000) -- CPU_WriteMem(4 bytes @ 0x20000000) -- CPU_WriteMem(4 bytes @ 0xE000EDF0) -- CPU_WriteMem(4 bytes @ 0xE000EDFC)Reset: Halt core after reset via DEMCR.VC_CORERESET. >0x35 TIF>Reset: Reset device via AIRCR.SYSRESETREQ. -- CPU_WriteMem(4 bytes @ 0xE000ED0C) >0x0D TIF> >0x28 TIF> -- CPU_ReadMem(4 bytes @ 0xE000EDF0) -- CPU_ReadMem(4 bytes @ 0xE000EDF0) -- CPU_WriteMem(4 bytes @ 0xE000EDF0) -- CPU_WriteMem(4 bytes @ 0xE000EDFC)
 -- CPU_ReadMem(4 bytes @ 0xE000EDF0) -- CPU_WriteMem(4 bytes @ 0xE0002000) -- CPU_ReadMem(4 bytes @ 0xE000EDFC) -- CPU_ReadMem(4 bytes @ 0xE0001000) -- CPU_WriteMem(4 bytes @ 0xE0001000) (0094ms, 10553ms total)
T2084 25243:085 JLINK_Halt()  returns 0x00 (0001ms, 10554ms total)
T2084 25243:086 JLINK_ReadMemU32(0xE000EDF0, 0x0001 Items, ...) -- CPU_ReadMem(4 bytes @ 0xE000EDF0) - Data: 03 00 03 00  returns 1 (0001ms, 10555ms total)
T2084 25243:087 JLINK_WriteU32(0xE000EDF0, 0xA05F0003) -- CPU_WriteMem(4 bytes @ 0xE000EDF0)  returns 0 (0002ms, 10557ms total)
T2084 25243:089 JLINK_WriteU32(0xE000EDFC, 0x01000000) -- CPU_WriteMem(4 bytes @ 0xE000EDFC)  returns 0 (0003ms, 10560ms total)
T2084 25243:122 JLINK_GetHWStatus(...)  returns 0x00 (0001ms, 10561ms total)
T2084 25243:138 JLINK_GetNumBPUnits(Type = 0xFFFFFF00)  returns 0x04 (0000ms, 10561ms total)
T2084 25243:138 JLINK_GetNumBPUnits(Type = 0xF0)  returns 0x2000 (0000ms, 10561ms total)
T2084 25243:138 JLINK_GetNumWPUnits()  returns 0x02 (0000ms, 10561ms total)
T2084 25243:149 JLINK_GetSpeed()  returns 0xFA0 (0000ms, 10561ms total)
T2084 25243:157 JLINK_ReadMemU32(0xE000E004, 0x0001 Items, ...) -- CPU_ReadMem(4 bytes @ 0xE000E004) - Data: 00 00 00 00  returns 1 (0001ms, 10562ms total)
T2084 25243:158 JLINK_Halt()  returns 0x00 (0000ms, 10562ms total)
T2084 25243:158 JLINK_IsHalted()  returns TRUE (0000ms, 10562ms total)
T2084 25243:161 JLINK_WriteMem(0x20000000, 0x0140 Bytes, ...) - Data: 00 BE 0A E0 0D 78 2D 06 68 40 08 24 40 00 00 D3 ... -- CPU_WriteMem(320 bytes @ 0x20000000)  returns 0x140 (0002ms, 10564ms total)
T2084 25243:163 JLINK_WriteReg(R0, 0x08000000)  returns 0x00 (0000ms, 10564ms total)
T2084 25243:163 JLINK_WriteReg(R1, 0x01E84800)  returns 0x00 (0000ms, 10564ms total)
T2084 25243:163 JLINK_WriteReg(R2, 0x00000001)  returns 0x00 (0000ms, 10564ms total)
T2084 25243:163 JLINK_WriteReg(R3, 0x00000000)  returns 0x00 (0000ms, 10564ms total)
T2084 25243:163 JLINK_WriteReg(R4, 0x00000000)  returns 0x00 (0000ms, 10564ms total)
T2084 25243:163 JLINK_WriteReg(R5, 0x00000000)  returns 0x00 (0000ms, 10564ms total)
T2084 25243:163 JLINK_WriteReg(R6, 0x00000000)  returns 0x00 (0000ms, 10564ms total)
T2084 25243:163 JLINK_WriteReg(R7, 0x00000000)  returns 0x00 (0000ms, 10564ms total)
T2084 25243:163 JLINK_WriteReg(R8, 0x00000000)  returns 0x00 (0000ms, 10564ms total)
T2084 25243:163 JLINK_WriteReg(R9, 0x2000013C)  returns 0x00 (0000ms, 10564ms total)
T2084 25243:163 JLINK_WriteReg(R10, 0x00000000)  returns 0x00 (0000ms, 10564ms total)
T2084 25243:163 JLINK_WriteReg(R11, 0x00000000)  returns 0x00 (0000ms, 10564ms total)
T2084 25243:163 JLINK_WriteReg(R12, 0x00000000)  returns 0x00 (0000ms, 10564ms total)
T2084 25243:163 JLINK_WriteReg(R13 (SP), 0x20001000)  returns 0x00 (0000ms, 10564ms total)
T2084 25243:163 JLINK_WriteReg(R14, 0x20000001)  returns 0x00 (0000ms, 10564ms total)
T2084 25243:163 JLINK_WriteReg(R15 (PC), 0x20000020)  returns 0x00 (0000ms, 10564ms total)
T2084 25243:163 JLINK_WriteReg(XPSR, 0x01000000)  returns 0x00 (0000ms, 10564ms total)
T2084 25243:163 JLINK_WriteReg(MSP, 0x20001000)  returns 0x00 (0000ms, 10564ms total)
T2084 25243:163 JLINK_WriteReg(PSP, 0x20001000)  returns 0x00 (0001ms, 10565ms total)
T2084 25243:164 JLINK_WriteReg(CFBP, 0x00000000)  returns 0x00 (0000ms, 10565ms total)
T2084 25243:164 JLINK_SetBPEx(Addr = 0x20000000, Type = 0xFFFFFFF2) -- CPU_ReadMem(2 bytes @ 0x20000000)  returns 0x00000001 (0001ms, 10566ms total)
T2084 25243:165 JLINK_Go() -- CPU_WriteMem(2 bytes @ 0x20000000) -- CPU_ReadMem(4 bytes @ 0xE0001000) -- CPU_WriteMem(4 bytes @ 0xE0001000) -- CPU_WriteMem(4 bytes @ 0xE0002008) -- CPU_WriteMem(4 bytes @ 0xE000200C) -- CPU_WriteMem(4 bytes @ 0xE0002010) -- CPU_WriteMem(4 bytes @ 0xE0002014) -- CPU_WriteMem(4 bytes @ 0xE0001004) (0014ms, 10580ms total)
T2084 25243:179 JLINK_IsHalted() -- CPU_ReadMem(2 bytes @ 0x20000000)  returns TRUE (0006ms, 10586ms total)
T2084 25243:185 JLINK_ReadReg(R15 (PC))  returns 0x20000000 (0000ms, 10580ms total)
T2084 25243:185 JLINK_ClrBPEx(BPHandle = 0x00000001)  returns 0x00 (0000ms, 10580ms total)
T2084 25243:185 JLINK_ReadReg(R0)  returns 0x00000000 (0000ms, 10580ms total)
T2084 25243:186 JLINK_WriteReg(R0, 0x08000000)  returns 0x00 (0000ms, 10580ms total)
T2084 25243:186 JLINK_WriteReg(R1, 0x00000080)  returns 0x00 (0000ms, 10580ms total)
T2084 25243:186 JLINK_WriteReg(R2, 0x00000000)  returns 0x00 (0000ms, 10580ms total)
T2084 25243:186 JLINK_WriteReg(R3, 0x00000000)  returns 0x00 (0000ms, 10580ms total)
T2084 25243:186 JLINK_WriteReg(R4, 0x00000000)  returns 0x00 (0000ms, 10580ms total)
T2084 25243:186 JLINK_WriteReg(R5, 0x00000000)  returns 0x00 (0000ms, 10580ms total)
T2084 25243:186 JLINK_WriteReg(R6, 0x00000000)  returns 0x00 (0000ms, 10580ms total)
T2084 25243:186 JLINK_WriteReg(R7, 0x00000000)  returns 0x00 (0000ms, 10580ms total)
T2084 25243:186 JLINK_WriteReg(R8, 0x00000000)  returns 0x00 (0000ms, 10580ms total)
T2084 25243:186 JLINK_WriteReg(R9, 0x2000013C)  returns 0x00 (0000ms, 10580ms total)
T2084 25243:186 JLINK_WriteReg(R10, 0x00000000)  returns 0x00 (0000ms, 10580ms total)
T2084 25243:186 JLINK_WriteReg(R11, 0x00000000)  returns 0x00 (0000ms, 10580ms total)
T2084 25243:186 JLINK_WriteReg(R12, 0x00000000)  returns 0x00 (0000ms, 10580ms total)
T2084 25243:186 JLINK_WriteReg(R13 (SP), 0x20001000)  returns 0x00 (0000ms, 10580ms total)
T2084 25243:186 JLINK_WriteReg(R14, 0x20000001)  returns 0x00 (0000ms, 10580ms total)
T2084 25243:186 JLINK_WriteReg(R15 (PC), 0x200000B0)  returns 0x00 (0000ms, 10580ms total)
T2084 25243:186 JLINK_WriteReg(XPSR, 0x01000000)  returns 0x00 (0000ms, 10580ms total)
T2084 25243:186 JLINK_WriteReg(MSP, 0x20001000)  returns 0x00 (0000ms, 10580ms total)
T2084 25243:186 JLINK_WriteReg(PSP, 0x20001000)  returns 0x00 (0000ms, 10580ms total)
T2084 25243:186 JLINK_WriteReg(CFBP, 0x00000000)  returns 0x00 (0000ms, 10580ms total)
T2084 25243:186 JLINK_SetBPEx(Addr = 0x20000000, Type = 0xFFFFFFF2)  returns 0x00000002 (0000ms, 10580ms total)
T2084 25243:186 JLINK_Go() -- CPU_ReadMem(4 bytes @ 0xE0001000) -- CPU_WriteMem(4 bytes @ 0xE0001000) (0010ms, 10590ms total)
T2084 25243:196 JLINK_IsHalted() -- CPU_ReadMem(2 bytes @ 0x20000000)  returns TRUE (0006ms, 10596ms total)
T2084 25243:202 JLINK_ReadReg(R15 (PC))  returns 0x20000000 (0000ms, 10590ms total)
T2084 25243:202 JLINK_ClrBPEx(BPHandle = 0x00000002)  returns 0x00 (0000ms, 10590ms total)
T2084 25243:202 JLINK_ReadReg(R0)  returns 0x00000001 (0000ms, 10590ms total)
T2084 25243:202 JLINK_WriteReg(R0, 0x08000000)  returns 0x00 (0000ms, 10590ms total)
T2084 25243:202 JLINK_WriteReg(R1, 0x00000080)  returns 0x00 (0000ms, 10590ms total)
T2084 25243:202 JLINK_WriteReg(R2, 0x00000000)  returns 0x00 (0000ms, 10590ms total)
T2084 25243:202 JLINK_WriteReg(R3, 0x00000000)  returns 0x00 (0000ms, 10590ms total)
T2084 25243:202 JLINK_WriteReg(R4, 0x00000000)  returns 0x00 (0000ms, 10590ms total)
T2084 25243:202 JLINK_WriteReg(R5, 0x00000000)  returns 0x00 (0000ms, 10590ms total)
T2084 25243:202 JLINK_WriteReg(R6, 0x00000000)  returns 0x00 (0000ms, 10590ms total)
T2084 25243:202 JLINK_WriteReg(R7, 0x00000000)  returns 0x00 (0000ms, 10590ms total)
T2084 25243:202 JLINK_WriteReg(R8, 0x00000000)  returns 0x00 (0001ms, 10591ms total)
T2084 25243:203 JLINK_WriteReg(R9, 0x2000013C)  returns 0x00 (0000ms, 10591ms total)
T2084 25243:203 JLINK_WriteReg(R10, 0x00000000)  returns 0x00 (0000ms, 10591ms total)
T2084 25243:203 JLINK_WriteReg(R11, 0x00000000)  returns 0x00 (0000ms, 10591ms total)
T2084 25243:203 JLINK_WriteReg(R12, 0x00000000)  returns 0x00 (0000ms, 10591ms total)
T2084 25243:203 JLINK_WriteReg(R13 (SP), 0x20001000)  returns 0x00 (0000ms, 10591ms total)
T2084 25243:203 JLINK_WriteReg(R14, 0x20000001)  returns 0x00 (0000ms, 10591ms total)
T2084 25243:203 JLINK_WriteReg(R15 (PC), 0x2000007A)  returns 0x00 (0000ms, 10591ms total)
T2084 25243:203 JLINK_WriteReg(XPSR, 0x01000000)  returns 0x00 (0000ms, 10591ms total)
T2084 25243:203 JLINK_WriteReg(MSP, 0x20001000)  returns 0x00 (0000ms, 10591ms total)
T2084 25243:203 JLINK_WriteReg(PSP, 0x20001000)  returns 0x00 (0000ms, 10591ms total)
T2084 25243:203 JLINK_WriteReg(CFBP, 0x00000000)  returns 0x00 (0000ms, 10591ms total)
T2084 25243:203 JLINK_SetBPEx(Addr = 0x20000000, Type = 0xFFFFFFF2)  returns 0x00000003 (0000ms, 10591ms total)
T2084 25243:203 JLINK_Go() -- CPU_ReadMem(4 bytes @ 0xE0001000) -- CPU_WriteMem(4 bytes @ 0xE0001000) (0007ms, 10598ms total)
T2084 25243:210 JLINK_IsHalted()  returns FALSE (0001ms, 10599ms total)
T2084 25243:274 JLINK_IsHalted() -- CPU_ReadMem(2 bytes @ 0x20000000)  returns TRUE (0004ms, 10602ms total)
T2084 25243:278 JLINK_ReadReg(R15 (PC))  returns 0x20000000 (0000ms, 10598ms total)
T2084 25243:278 JLINK_ClrBPEx(BPHandle = 0x00000003)  returns 0x00 (0000ms, 10598ms total)
T2084 25243:278 JLINK_ReadReg(R0)  returns 0x00000000 (0000ms, 10598ms total)
T2084 25243:279 JLINK_WriteReg(R0, 0x08000080)  returns 0x00 (0000ms, 10598ms total)
T2084 25243:279 JLINK_WriteReg(R1, 0x00000080)  returns 0x00 (0000ms, 10598ms total)
T2084 25243:279 JLINK_WriteReg(R2, 0x00000000)  returns 0x00 (0000ms, 10598ms total)
T2084 25243:279 JLINK_WriteReg(R3, 0x00000000)  returns 0x00 (0000ms, 10598ms total)
T2084 25243:279 JLINK_WriteReg(R4, 0x00000000)  returns 0x00 (0000ms, 10598ms total)
T2084 25243:279 JLINK_WriteReg(R5, 0x00000000)  returns 0x00 (0000ms, 10598ms total)
T2084 25243:279 JLINK_WriteReg(R6, 0x00000000)  returns 0x00 (0000ms, 10598ms total)
T2084 25243:279 JLINK_WriteReg(R7, 0x00000000)  returns 0x00 (0000ms, 10598ms total)
T2084 25243:279 JLINK_WriteReg(R8, 0x00000000)  returns 0x00 (0000ms, 10598ms total)
T2084 25243:279 JLINK_WriteReg(R9, 0x2000013C)  returns 0x00 (0000ms, 10598ms total)
T2084 25243:279 JLINK_WriteReg(R10, 0x00000000)  returns 0x00 (0000ms, 10598ms total)
T2084 25243:279 JLINK_WriteReg(R11, 0x00000000)  returns 0x00 (0000ms, 10598ms total)
T2084 25243:279 JLINK_WriteReg(R12, 0x00000000)  returns 0x00 (0000ms, 10598ms total)
T2084 25243:279 JLINK_WriteReg(R13 (SP), 0x20001000)  returns 0x00 (0000ms, 10598ms total)
T2084 25243:279 JLINK_WriteReg(R14, 0x20000001)  returns 0x00 (0000ms, 10598ms total)
T2084 25243:279 JLINK_WriteReg(R15 (PC), 0x200000B0)  returns 0x00 (0000ms, 10598ms total)
T2084 25243:279 JLINK_WriteReg(XPSR, 0x01000000)  returns 0x00 (0000ms, 10598ms total)
T2084 25243:279 JLINK_WriteReg(MSP, 0x20001000)  returns 0x00 (0000ms, 10598ms total)
T2084 25243:279 JLINK_WriteReg(PSP, 0x20001000)  returns 0x00 (0000ms, 10598ms total)
T2084 25243:279 JLINK_WriteReg(CFBP, 0x00000000)  returns 0x00 (0000ms, 10598ms total)
T2084 25243:279 JLINK_SetBPEx(Addr = 0x20000000, Type = 0xFFFFFFF2)  returns 0x00000004 (0000ms, 10598ms total)
T2084 25243:279 JLINK_Go() -- CPU_ReadMem(4 bytes @ 0xE0001000) -- CPU_WriteMem(4 bytes @ 0xE0001000) (0007ms, 10605ms total)
T2084 25243:286 JLINK_IsHalted() -- CPU_ReadMem(2 bytes @ 0x20000000)  returns TRUE (0008ms, 10613ms total)
T2084 25243:294 JLINK_ReadReg(R15 (PC))  returns 0x20000000 (0000ms, 10605ms total)
T2084 25243:294 JLINK_ClrBPEx(BPHandle = 0x00000004)  returns 0x00 (0000ms, 10605ms total)
T2084 25243:294 JLINK_ReadReg(R0)  returns 0x00000001 (0000ms, 10605ms total)
T2084 25243:294 JLINK_WriteReg(R0, 0x08000080)  returns 0x00 (0000ms, 10605ms total)
T2084 25243:294 JLINK_WriteReg(R1, 0x00000080)  returns 0x00 (0000ms, 10605ms total)
T2084 25243:294 JLINK_WriteReg(R2, 0x00000000)  returns 0x00 (0000ms, 10605ms total)
T2084 25243:294 JLINK_WriteReg(R3, 0x00000000)  returns 0x00 (0000ms, 10605ms total)
T2084 25243:294 JLINK_WriteReg(R4, 0x00000000)  returns 0x00 (0000ms, 10605ms total)
T2084 25243:294 JLINK_WriteReg(R5, 0x00000000)  returns 0x00 (0000ms, 10605ms total)
T2084 25243:294 JLINK_WriteReg(R6, 0x00000000)  returns 0x00 (0000ms, 10605ms total)
T2084 25243:294 JLINK_WriteReg(R7, 0x00000000)  returns 0x00 (0000ms, 10605ms total)
T2084 25243:294 JLINK_WriteReg(R8, 0x00000000)  returns 0x00 (0000ms, 10605ms total)
T2084 25243:294 JLINK_WriteReg(R9, 0x2000013C)  returns 0x00 (0000ms, 10605ms total)
T2084 25243:294 JLINK_WriteReg(R10, 0x00000000)  returns 0x00 (0000ms, 10605ms total)
T2084 25243:294 JLINK_WriteReg(R11, 0x00000000)  returns 0x00 (0000ms, 10605ms total)
T2084 25243:294 JLINK_WriteReg(R12, 0x00000000)  returns 0x00 (0000ms, 10605ms total)
T2084 25243:294 JLINK_WriteReg(R13 (SP), 0x20001000)  returns 0x00 (0000ms, 10605ms total)
T2084 25243:294 JLINK_WriteReg(R14, 0x20000001)  returns 0x00 (0000ms, 10605ms total)
T2084 25243:294 JLINK_WriteReg(R15 (PC), 0x2000007A)  returns 0x00 (0000ms, 10605ms total)
T2084 25243:294 JLINK_WriteReg(XPSR, 0x01000000)  returns 0x00 (0000ms, 10605ms total)
T2084 25243:294 JLINK_WriteReg(MSP, 0x20001000)  returns 0x00 (0000ms, 10605ms total)
T2084 25243:294 JLINK_WriteReg(PSP, 0x20001000)  returns 0x00 (0000ms, 10605ms total)
T2084 25243:294 JLINK_WriteReg(CFBP, 0x00000000)  returns 0x00 (0000ms, 10605ms total)
T2084 25243:294 JLINK_SetBPEx(Addr = 0x20000000, Type = 0xFFFFFFF2)  returns 0x00000005 (0000ms, 10605ms total)
T2084 25243:294 JLINK_Go() -- CPU_ReadMem(4 bytes @ 0xE0001000) -- CPU_WriteMem(4 bytes @ 0xE0001000) (0008ms, 10613ms total)
T2084 25243:302 JLINK_IsHalted()  returns FALSE (0002ms, 10615ms total)
T2084 25243:343 JLINK_IsHalted() -- CPU_ReadMem(2 bytes @ 0x20000000)  returns TRUE (0005ms, 10618ms total)
T2084 25243:348 JLINK_ReadReg(R15 (PC))  returns 0x20000000 (0001ms, 10614ms total)
T2084 25243:349 JLINK_ClrBPEx(BPHandle = 0x00000005)  returns 0x00 (0000ms, 10614ms total)
T2084 25243:349 JLINK_ReadReg(R0)  returns 0x00000000 (0000ms, 10614ms total)
T2084 25243:349 JLINK_WriteReg(R0, 0x08000100)  returns 0x00 (0000ms, 10614ms total)
T2084 25243:349 JLINK_WriteReg(R1, 0x00000080)  returns 0x00 (0000ms, 10614ms total)
T2084 25243:349 JLINK_WriteReg(R2, 0x00000000)  returns 0x00 (0000ms, 10614ms total)
T2084 25243:349 JLINK_WriteReg(R3, 0x00000000)  returns 0x00 (0000ms, 10614ms total)
T2084 25243:349 JLINK_WriteReg(R4, 0x00000000)  returns 0x00 (0000ms, 10614ms total)
T2084 25243:349 JLINK_WriteReg(R5, 0x00000000)  returns 0x00 (0000ms, 10614ms total)
T2084 25243:349 JLINK_WriteReg(R6, 0x00000000)  returns 0x00 (0000ms, 10614ms total)
T2084 25243:349 JLINK_WriteReg(R7, 0x00000000)  returns 0x00 (0000ms, 10614ms total)
T2084 25243:349 JLINK_WriteReg(R8, 0x00000000)  returns 0x00 (0000ms, 10614ms total)
T2084 25243:349 JLINK_WriteReg(R9, 0x2000013C)  returns 0x00 (0000ms, 10614ms total)
T2084 25243:349 JLINK_WriteReg(R10, 0x00000000)  returns 0x00 (0000ms, 10614ms total)
T2084 25243:349 JLINK_WriteReg(R11, 0x00000000)  returns 0x00 (0000ms, 10614ms total)
T2084 25243:349 JLINK_WriteReg(R12, 0x00000000)  returns 0x00 (0000ms, 10614ms total)
T2084 25243:349 JLINK_WriteReg(R13 (SP), 0x20001000)  returns 0x00 (0001ms, 10615ms total)
T2084 25243:350 JLINK_WriteReg(R14, 0x20000001)  returns 0x00 (0000ms, 10615ms total)
T2084 25243:350 JLINK_WriteReg(R15 (PC), 0x200000B0)  returns 0x00 (0000ms, 10615ms total)
T2084 25243:350 JLINK_WriteReg(XPSR, 0x01000000)  returns 0x00 (0000ms, 10615ms total)
T2084 25243:350 JLINK_WriteReg(MSP, 0x20001000)  returns 0x00 (0000ms, 10615ms total)
T2084 25243:350 JLINK_WriteReg(PSP, 0x20001000)  returns 0x00 (0000ms, 10615ms total)
T2084 25243:350 JLINK_WriteReg(CFBP, 0x00000000)  returns 0x00 (0000ms, 10615ms total)
T2084 25243:350 JLINK_SetBPEx(Addr = 0x20000000, Type = 0xFFFFFFF2)  returns 0x00000006 (0000ms, 10615ms total)
T2084 25243:350 JLINK_Go() -- CPU_ReadMem(4 bytes @ 0xE0001000) -- CPU_WriteMem(4 bytes @ 0xE0001000) (0008ms, 10623ms total)
T2084 25243:358 JLINK_IsHalted() -- CPU_ReadMem(2 bytes @ 0x20000000)  returns TRUE (0008ms, 10631ms total)
T2084 25243:366 JLINK_ReadReg(R15 (PC))  returns 0x20000000 (0000ms, 10623ms total)
T2084 25243:366 JLINK_ClrBPEx(BPHandle = 0x00000006)  returns 0x00 (0000ms, 10623ms total)
T2084 25243:366 JLINK_ReadReg(R0)  returns 0x00000001 (0000ms, 10623ms total)
T2084 25243:366 JLINK_WriteReg(R0, 0x08000100)  returns 0x00 (0000ms, 10623ms total)
T2084 25243:366 JLINK_WriteReg(R1, 0x00000080)  returns 0x00 (0000ms, 10623ms total)
T2084 25243:366 JLINK_WriteReg(R2, 0x00000000)  returns 0x00 (0000ms, 10623ms total)
T2084 25243:366 JLINK_WriteReg(R3, 0x00000000)  returns 0x00 (0000ms, 10623ms total)
T2084 25243:366 JLINK_WriteReg(R4, 0x00000000)  returns 0x00 (0000ms, 10623ms total)
T2084 25243:366 JLINK_WriteReg(R5, 0x00000000)  returns 0x00 (0000ms, 10623ms total)
T2084 25243:366 JLINK_WriteReg(R6, 0x00000000)  returns 0x00 (0000ms, 10623ms total)
T2084 25243:366 JLINK_WriteReg(R7, 0x00000000)  returns 0x00 (0000ms, 10623ms total)
T2084 25243:366 JLINK_WriteReg(R8, 0x00000000)  returns 0x00 (0000ms, 10623ms total)
T2084 25243:366 JLINK_WriteReg(R9, 0x2000013C)  returns 0x00 (0000ms, 10623ms total)
T2084 25243:366 JLINK_WriteReg(R10, 0x00000000)  returns 0x00 (0000ms, 10623ms total)
T2084 25243:366 JLINK_WriteReg(R11, 0x00000000)  returns 0x00 (0000ms, 10623ms total)
T2084 25243:366 JLINK_WriteReg(R12, 0x00000000)  returns 0x00 (0000ms, 10623ms total)
T2084 25243:366 JLINK_WriteReg(R13 (SP), 0x20001000)  returns 0x00 (0000ms, 10623ms total)
T2084 25243:366 JLINK_WriteReg(R14, 0x20000001)  returns 0x00 (0000ms, 10623ms total)
T2084 25243:366 JLINK_WriteReg(R15 (PC), 0x2000007A)  returns 0x00 (0000ms, 10623ms total)
T2084 25243:366 JLINK_WriteReg(XPSR, 0x01000000)  returns 0x00 (0000ms, 10623ms total)
T2084 25243:366 JLINK_WriteReg(MSP, 0x20001000)  returns 0x00 (0000ms, 10623ms total)
T2084 25243:366 JLINK_WriteReg(PSP, 0x20001000)  returns 0x00 (0000ms, 10623ms total)
T2084 25243:366 JLINK_WriteReg(CFBP, 0x00000000)  returns 0x00 (0000ms, 10623ms total)
T2084 25243:366 JLINK_SetBPEx(Addr = 0x20000000, Type = 0xFFFFFFF2)  returns 0x00000007 (0000ms, 10623ms total)
T2084 25243:366 JLINK_Go() -- CPU_ReadMem(4 bytes @ 0xE0001000) -- CPU_WriteMem(4 bytes @ 0xE0001000) (0010ms, 10633ms total)
T2084 25243:376 JLINK_IsHalted()  returns FALSE (0002ms, 10635ms total)
T2084 25243:437 JLINK_IsHalted() -- CPU_ReadMem(2 bytes @ 0x20000000)  returns TRUE (0006ms, 10639ms total)
T2084 25243:443 JLINK_ReadReg(R15 (PC))  returns 0x20000000 (0000ms, 10633ms total)
T2084 25243:443 JLINK_ClrBPEx(BPHandle = 0x00000007)  returns 0x00 (0000ms, 10633ms total)
T2084 25243:443 JLINK_ReadReg(R0)  returns 0x00000000 (0000ms, 10633ms total)
T2084 25243:445 JLINK_WriteReg(R0, 0x08000180)  returns 0x00 (0000ms, 10633ms total)
T2084 25243:445 JLINK_WriteReg(R1, 0x00000080)  returns 0x00 (0000ms, 10633ms total)
T2084 25243:445 JLINK_WriteReg(R2, 0x00000000)  returns 0x00 (0000ms, 10633ms total)
T2084 25243:445 JLINK_WriteReg(R3, 0x00000000)  returns 0x00 (0000ms, 10633ms total)
T2084 25243:445 JLINK_WriteReg(R4, 0x00000000)  returns 0x00 (0000ms, 10633ms total)
T2084 25243:445 JLINK_WriteReg(R5, 0x00000000)  returns 0x00 (0001ms, 10634ms total)
T2084 25243:446 JLINK_WriteReg(R6, 0x00000000)  returns 0x00 (0000ms, 10634ms total)
T2084 25243:446 JLINK_WriteReg(R7, 0x00000000)  returns 0x00 (0000ms, 10634ms total)
T2084 25243:446 JLINK_WriteReg(R8, 0x00000000)  returns 0x00 (0000ms, 10634ms total)
T2084 25243:446 JLINK_WriteReg(R9, 0x2000013C)  returns 0x00 (0000ms, 10634ms total)
T2084 25243:446 JLINK_WriteReg(R10, 0x00000000)  returns 0x00 (0000ms, 10634ms total)
T2084 25243:446 JLINK_WriteReg(R11, 0x00000000)  returns 0x00 (0000ms, 10634ms total)
T2084 25243:446 JLINK_WriteReg(R12, 0x00000000)  returns 0x00 (0000ms, 10634ms total)
T2084 25243:446 JLINK_WriteReg(R13 (SP), 0x20001000)  returns 0x00 (0000ms, 10634ms total)
T2084 25243:446 JLINK_WriteReg(R14, 0x20000001)  returns 0x00 (0000ms, 10634ms total)
T2084 25243:446 JLINK_WriteReg(R15 (PC), 0x200000B0)  returns 0x00 (0000ms, 10634ms total)
T2084 25243:446 JLINK_WriteReg(XPSR, 0x01000000)  returns 0x00 (0000ms, 10634ms total)
T2084 25243:446 JLINK_WriteReg(MSP, 0x20001000)  returns 0x00 (0000ms, 10634ms total)
T2084 25243:446 JLINK_WriteReg(PSP, 0x20001000)  returns 0x00 (0000ms, 10634ms total)
T2084 25243:446 JLINK_WriteReg(CFBP, 0x00000000)  returns 0x00 (0000ms, 10634ms total)
T2084 25243:446 JLINK_SetBPEx(Addr = 0x20000000, Type = 0xFFFFFFF2)  returns 0x00000008 (0000ms, 10634ms total)
T2084 25243:446 JLINK_Go() -- CPU_ReadMem(4 bytes @ 0xE0001000) -- CPU_WriteMem(4 bytes @ 0xE0001000) (0006ms, 10640ms total)
T2084 25243:452 JLINK_IsHalted() -- CPU_ReadMem(2 bytes @ 0x20000000)  returns TRUE (0004ms, 10644ms total)
T2084 25243:456 JLINK_ReadReg(R15 (PC))  returns 0x20000000 (0000ms, 10640ms total)
T2084 25243:456 JLINK_ClrBPEx(BPHandle = 0x00000008)  returns 0x00 (0000ms, 10640ms total)
T2084 25243:456 JLINK_ReadReg(R0)  returns 0x00000001 (0000ms, 10640ms total)
T2084 25243:456 JLINK_WriteReg(R0, 0x08000180)  returns 0x00 (0000ms, 10640ms total)
T2084 25243:456 JLINK_WriteReg(R1, 0x00000080)  returns 0x00 (0000ms, 10640ms total)
T2084 25243:456 JLINK_WriteReg(R2, 0x00000000)  returns 0x00 (0000ms, 10640ms total)
T2084 25243:456 JLINK_WriteReg(R3, 0x00000000)  returns 0x00 (0000ms, 10640ms total)
T2084 25243:456 JLINK_WriteReg(R4, 0x00000000)  returns 0x00 (0000ms, 10640ms total)
T2084 25243:456 JLINK_WriteReg(R5, 0x00000000)  returns 0x00 (0000ms, 10640ms total)
T2084 25243:456 JLINK_WriteReg(R6, 0x00000000)  returns 0x00 (0000ms, 10640ms total)
T2084 25243:456 JLINK_WriteReg(R7, 0x00000000)  returns 0x00 (0000ms, 10640ms total)
T2084 25243:456 JLINK_WriteReg(R8, 0x00000000)  returns 0x00 (0000ms, 10640ms total)
T2084 25243:456 JLINK_WriteReg(R9, 0x2000013C)  returns 0x00 (0000ms, 10640ms total)
T2084 25243:456 JLINK_WriteReg(R10, 0x00000000)  returns 0x00 (0000ms, 10640ms total)
T2084 25243:456 JLINK_WriteReg(R11, 0x00000000)  returns 0x00 (0000ms, 10640ms total)
T2084 25243:456 JLINK_WriteReg(R12, 0x00000000)  returns 0x00 (0000ms, 10640ms total)
T2084 25243:456 JLINK_WriteReg(R13 (SP), 0x20001000)  returns 0x00 (0000ms, 10640ms total)
T2084 25243:456 JLINK_WriteReg(R14, 0x20000001)  returns 0x00 (0000ms, 10640ms total)
T2084 25243:456 JLINK_WriteReg(R15 (PC), 0x2000007A)  returns 0x00 (0000ms, 10640ms total)
T2084 25243:456 JLINK_WriteReg(XPSR, 0x01000000)  returns 0x00 (0000ms, 10640ms total)
T2084 25243:457 JLINK_WriteReg(MSP, 0x20001000)  returns 0x00 (0000ms, 10641ms total)
T2084 25243:457 JLINK_WriteReg(PSP, 0x20001000)  returns 0x00 (0000ms, 10641ms total)
T2084 25243:457 JLINK_WriteReg(CFBP, 0x00000000)  returns 0x00 (0000ms, 10641ms total)
T2084 25243:457 JLINK_SetBPEx(Addr = 0x20000000, Type = 0xFFFFFFF2)  returns 0x00000009 (0000ms, 10641ms total)
T2084 25243:457 JLINK_Go() -- CPU_ReadMem(4 bytes @ 0xE0001000) -- CPU_WriteMem(4 bytes @ 0xE0001000) (0005ms, 10646ms total)
T2084 25243:462 JLINK_IsHalted()  returns FALSE (0001ms, 10647ms total)
T2084 25243:468 JLINK_IsHalted() -- CPU_ReadMem(2 bytes @ 0x20000000)  returns TRUE (0004ms, 10650ms total)
T2084 25243:472 JLINK_ReadReg(R15 (PC))  returns 0x20000000 (0000ms, 10646ms total)
T2084 25243:472 JLINK_ClrBPEx(BPHandle = 0x00000009)  returns 0x00 (0000ms, 10646ms total)
T2084 25243:472 JLINK_ReadReg(R0)  returns 0x00000000 (0000ms, 10646ms total)
T2084 25243:476 JLINK_WriteReg(R0, 0x08000200)  returns 0x00 (0000ms, 10646ms total)
T2084 25243:476 JLINK_WriteReg(R1, 0x00000080)  returns 0x00 (0000ms, 10646ms total)
T2084 25243:476 JLINK_WriteReg(R2, 0x00000000)  returns 0x00 (0000ms, 10646ms total)
T2084 25243:476 JLINK_WriteReg(R3, 0x00000000)  returns 0x00 (0000ms, 10646ms total)
T2084 25243:476 JLINK_WriteReg(R4, 0x00000000)  returns 0x00 (0000ms, 10646ms total)
T2084 25243:476 JLINK_WriteReg(R5, 0x00000000)  returns 0x00 (0000ms, 10646ms total)
T2084 25243:476 JLINK_WriteReg(R6, 0x00000000)  returns 0x00 (0000ms, 10646ms total)
T2084 25243:476 JLINK_WriteReg(R7, 0x00000000)  returns 0x00 (0000ms, 10646ms total)
T2084 25243:476 JLINK_WriteReg(R8, 0x00000000)  returns 0x00 (0000ms, 10646ms total)
T2084 25243:476 JLINK_WriteReg(R9, 0x2000013C)  returns 0x00 (0000ms, 10646ms total)
T2084 25243:476 JLINK_WriteReg(R10, 0x00000000)  returns 0x00 (0000ms, 10646ms total)
T2084 25243:476 JLINK_WriteReg(R11, 0x00000000)  returns 0x00 (0000ms, 10646ms total)
T2084 25243:476 JLINK_WriteReg(R12, 0x00000000)  returns 0x00 (0000ms, 10646ms total)
T2084 25243:476 JLINK_WriteReg(R13 (SP), 0x20001000)  returns 0x00 (0000ms, 10646ms total)
T2084 25243:476 JLINK_WriteReg(R14, 0x20000001)  returns 0x00 (0000ms, 10646ms total)
T2084 25243:476 JLINK_WriteReg(R15 (PC), 0x200000B0)  returns 0x00 (0000ms, 10646ms total)
T2084 25243:476 JLINK_WriteReg(XPSR, 0x01000000)  returns 0x00 (0000ms, 10646ms total)
T2084 25243:476 JLINK_WriteReg(MSP, 0x20001000)  returns 0x00 (0000ms, 10646ms total)
T2084 25243:476 JLINK_WriteReg(PSP, 0x20001000)  returns 0x00 (0000ms, 10646ms total)
T2084 25243:476 JLINK_WriteReg(CFBP, 0x00000000)  returns 0x00 (0000ms, 10646ms total)
T2084 25243:476 JLINK_SetBPEx(Addr = 0x20000000, Type = 0xFFFFFFF2)  returns 0x0000000A (0000ms, 10646ms total)
T2084 25243:476 JLINK_Go() -- CPU_ReadMem(4 bytes @ 0xE0001000) -- CPU_WriteMem(4 bytes @ 0xE0001000) (0006ms, 10652ms total)
T2084 25243:482 JLINK_IsHalted() -- CPU_ReadMem(2 bytes @ 0x20000000)  returns TRUE (0004ms, 10656ms total)
T2084 25243:486 JLINK_ReadReg(R15 (PC))  returns 0x20000000 (0000ms, 10652ms total)
T2084 25243:486 JLINK_ClrBPEx(BPHandle = 0x0000000A)  returns 0x00 (0000ms, 10652ms total)
T2084 25243:486 JLINK_ReadReg(R0)  returns 0x00000001 (0000ms, 10652ms total)
T2084 25243:486 JLINK_WriteReg(R0, 0x08000200)  returns 0x00 (0000ms, 10652ms total)
T2084 25243:486 JLINK_WriteReg(R1, 0x00000080)  returns 0x00 (0000ms, 10652ms total)
T2084 25243:486 JLINK_WriteReg(R2, 0x00000000)  returns 0x00 (0000ms, 10652ms total)
T2084 25243:486 JLINK_WriteReg(R3, 0x00000000)  returns 0x00 (0000ms, 10652ms total)
T2084 25243:486 JLINK_WriteReg(R4, 0x00000000)  returns 0x00 (0000ms, 10652ms total)
T2084 25243:486 JLINK_WriteReg(R5, 0x00000000)  returns 0x00 (0000ms, 10652ms total)
T2084 25243:486 JLINK_WriteReg(R6, 0x00000000)  returns 0x00 (0000ms, 10652ms total)
T2084 25243:486 JLINK_WriteReg(R7, 0x00000000)  returns 0x00 (0000ms, 10652ms total)
T2084 25243:486 JLINK_WriteReg(R8, 0x00000000)  returns 0x00 (0000ms, 10652ms total)
T2084 25243:486 JLINK_WriteReg(R9, 0x2000013C)  returns 0x00 (0000ms, 10652ms total)
T2084 25243:486 JLINK_WriteReg(R10, 0x00000000)  returns 0x00 (0001ms, 10653ms total)
T2084 25243:487 JLINK_WriteReg(R11, 0x00000000)  returns 0x00 (0000ms, 10653ms total)
T2084 25243:487 JLINK_WriteReg(R12, 0x00000000)  returns 0x00 (0000ms, 10653ms total)
T2084 25243:487 JLINK_WriteReg(R13 (SP), 0x20001000)  returns 0x00 (0000ms, 10653ms total)
T2084 25243:487 JLINK_WriteReg(R14, 0x20000001)  returns 0x00 (0000ms, 10653ms total)
T2084 25243:487 JLINK_WriteReg(R15 (PC), 0x2000007A)  returns 0x00 (0000ms, 10653ms total)
T2084 25243:487 JLINK_WriteReg(XPSR, 0x01000000)  returns 0x00 (0000ms, 10653ms total)
T2084 25243:487 JLINK_WriteReg(MSP, 0x20001000)  returns 0x00 (0000ms, 10653ms total)
T2084 25243:487 JLINK_WriteReg(PSP, 0x20001000)  returns 0x00 (0000ms, 10653ms total)
T2084 25243:487 JLINK_WriteReg(CFBP, 0x00000000)  returns 0x00 (0000ms, 10653ms total)
T2084 25243:487 JLINK_SetBPEx(Addr = 0x20000000, Type = 0xFFFFFFF2)  returns 0x0000000B (0000ms, 10653ms total)
T2084 25243:487 JLINK_Go() -- CPU_ReadMem(4 bytes @ 0xE0001000) -- CPU_WriteMem(4 bytes @ 0xE0001000) (0005ms, 10658ms total)
T2084 25243:492 JLINK_IsHalted()  returns FALSE (0001ms, 10659ms total)
T2084 25243:502 JLINK_IsHalted() -- CPU_ReadMem(2 bytes @ 0x20000000)  returns TRUE (0004ms, 10662ms total)
T2084 25243:506 JLINK_ReadReg(R15 (PC))  returns 0x20000000 (0000ms, 10658ms total)
T2084 25243:506 JLINK_ClrBPEx(BPHandle = 0x0000000B)  returns 0x00 (0000ms, 10658ms total)
T2084 25243:506 JLINK_ReadReg(R0)  returns 0x00000000 (0000ms, 10658ms total)
T2084 25243:507 JLINK_WriteReg(R0, 0x08000280)  returns 0x00 (0000ms, 10658ms total)
T2084 25243:507 JLINK_WriteReg(R1, 0x00000080)  returns 0x00 (0000ms, 10658ms total)
T2084 25243:507 JLINK_WriteReg(R2, 0x00000000)  returns 0x00 (0000ms, 10658ms total)
T2084 25243:507 JLINK_WriteReg(R3, 0x00000000)  returns 0x00 (0000ms, 10658ms total)
T2084 25243:507 JLINK_WriteReg(R4, 0x00000000)  returns 0x00 (0000ms, 10658ms total)
T2084 25243:507 JLINK_WriteReg(R5, 0x00000000)  returns 0x00 (0000ms, 10658ms total)
T2084 25243:507 JLINK_WriteReg(R6, 0x00000000)  returns 0x00 (0000ms, 10658ms total)
T2084 25243:507 JLINK_WriteReg(R7, 0x00000000)  returns 0x00 (0001ms, 10659ms total)
T2084 25243:508 JLINK_WriteReg(R8, 0x00000000)  returns 0x00 (0000ms, 10659ms total)
T2084 25243:508 JLINK_WriteReg(R9, 0x2000013C)  returns 0x00 (0000ms, 10659ms total)
T2084 25243:508 JLINK_WriteReg(R10, 0x00000000)  returns 0x00 (0000ms, 10659ms total)
T2084 25243:508 JLINK_WriteReg(R11, 0x00000000)  returns 0x00 (0000ms, 10659ms total)
T2084 25243:508 JLINK_WriteReg(R12, 0x00000000)  returns 0x00 (0000ms, 10659ms total)
T2084 25243:508 JLINK_WriteReg(R13 (SP), 0x20001000)  returns 0x00 (0000ms, 10659ms total)
T2084 25243:508 JLINK_WriteReg(R14, 0x20000001)  returns 0x00 (0000ms, 10659ms total)
T2084 25243:508 JLINK_WriteReg(R15 (PC), 0x200000B0)  returns 0x00 (0000ms, 10659ms total)
T2084 25243:508 JLINK_WriteReg(XPSR, 0x01000000)  returns 0x00 (0000ms, 10659ms total)
T2084 25243:508 JLINK_WriteReg(MSP, 0x20001000)  returns 0x00 (0000ms, 10659ms total)
T2084 25243:508 JLINK_WriteReg(PSP, 0x20001000)  returns 0x00 (0000ms, 10659ms total)
T2084 25243:508 JLINK_WriteReg(CFBP, 0x00000000)  returns 0x00 (0000ms, 10659ms total)
T2084 25243:508 JLINK_SetBPEx(Addr = 0x20000000, Type = 0xFFFFFFF2)  returns 0x0000000C (0000ms, 10659ms total)
T2084 25243:508 JLINK_Go() -- CPU_ReadMem(4 bytes @ 0xE0001000) -- CPU_WriteMem(4 bytes @ 0xE0001000) (0006ms, 10665ms total)
T2084 25243:514 JLINK_IsHalted() -- CPU_ReadMem(2 bytes @ 0x20000000)  returns TRUE (0004ms, 10669ms total)
T2084 25243:518 JLINK_ReadReg(R15 (PC))  returns 0x20000000 (0000ms, 10665ms total)
T2084 25243:518 JLINK_ClrBPEx(BPHandle = 0x0000000C)  returns 0x00 (0000ms, 10665ms total)
T2084 25243:518 JLINK_ReadReg(R0)  returns 0x00000001 (0000ms, 10665ms total)
T2084 25243:518 JLINK_WriteReg(R0, 0x08000280)  returns 0x00 (0000ms, 10665ms total)
T2084 25243:518 JLINK_WriteReg(R1, 0x00000080)  returns 0x00 (0000ms, 10665ms total)
T2084 25243:518 JLINK_WriteReg(R2, 0x00000000)  returns 0x00 (0000ms, 10665ms total)
T2084 25243:518 JLINK_WriteReg(R3, 0x00000000)  returns 0x00 (0000ms, 10665ms total)
T2084 25243:518 JLINK_WriteReg(R4, 0x00000000)  returns 0x00 (0000ms, 10665ms total)
T2084 25243:518 JLINK_WriteReg(R5, 0x00000000)  returns 0x00 (0000ms, 10665ms total)
T2084 25243:518 JLINK_WriteReg(R6, 0x00000000)  returns 0x00 (0000ms, 10665ms total)
T2084 25243:518 JLINK_WriteReg(R7, 0x00000000)  returns 0x00 (0000ms, 10665ms total)
T2084 25243:518 JLINK_WriteReg(R8, 0x00000000)  returns 0x00 (0000ms, 10665ms total)
T2084 25243:518 JLINK_WriteReg(R9, 0x2000013C)  returns 0x00 (0000ms, 10665ms total)
T2084 25243:518 JLINK_WriteReg(R10, 0x00000000)  returns 0x00 (0000ms, 10665ms total)
T2084 25243:518 JLINK_WriteReg(R11, 0x00000000)  returns 0x00 (0000ms, 10665ms total)
T2084 25243:518 JLINK_WriteReg(R12, 0x00000000)  returns 0x00 (0000ms, 10665ms total)
T2084 25243:518 JLINK_WriteReg(R13 (SP), 0x20001000)  returns 0x00 (0000ms, 10665ms total)
T2084 25243:518 JLINK_WriteReg(R14, 0x20000001)  returns 0x00 (0000ms, 10665ms total)
T2084 25243:518 JLINK_WriteReg(R15 (PC), 0x2000007A)  returns 0x00 (0000ms, 10665ms total)
T2084 25243:518 JLINK_WriteReg(XPSR, 0x01000000)  returns 0x00 (0000ms, 10665ms total)
T2084 25243:518 JLINK_WriteReg(MSP, 0x20001000)  returns 0x00 (0001ms, 10666ms total)
T2084 25243:519 JLINK_WriteReg(PSP, 0x20001000)  returns 0x00 (0000ms, 10666ms total)
T2084 25243:519 JLINK_WriteReg(CFBP, 0x00000000)  returns 0x00 (0000ms, 10666ms total)
T2084 25243:519 JLINK_SetBPEx(Addr = 0x20000000, Type = 0xFFFFFFF2)  returns 0x0000000D (0000ms, 10666ms total)
T2084 25243:519 JLINK_Go() -- CPU_ReadMem(4 bytes @ 0xE0001000) -- CPU_WriteMem(4 bytes @ 0xE0001000) (0005ms, 10671ms total)
T2084 25243:524 JLINK_IsHalted()  returns FALSE (0001ms, 10672ms total)
T2084 25243:530 JLINK_IsHalted() -- CPU_ReadMem(2 bytes @ 0x20000000)  returns TRUE (0004ms, 10675ms total)
T2084 25243:534 JLINK_ReadReg(R15 (PC))  returns 0x20000000 (0000ms, 10671ms total)
T2084 25243:534 JLINK_ClrBPEx(BPHandle = 0x0000000D)  returns 0x00 (0000ms, 10671ms total)
T2084 25243:534 JLINK_ReadReg(R0)  returns 0x00000000 (0000ms, 10671ms total)
T2084 25243:535 JLINK_WriteReg(R0, 0x08000300)  returns 0x00 (0000ms, 10671ms total)
T2084 25243:535 JLINK_WriteReg(R1, 0x00000080)  returns 0x00 (0000ms, 10671ms total)
T2084 25243:535 JLINK_WriteReg(R2, 0x00000000)  returns 0x00 (0000ms, 10671ms total)
T2084 25243:535 JLINK_WriteReg(R3, 0x00000000)  returns 0x00 (0000ms, 10671ms total)
T2084 25243:535 JLINK_WriteReg(R4, 0x00000000)  returns 0x00 (0000ms, 10671ms total)
T2084 25243:535 JLINK_WriteReg(R5, 0x00000000)  returns 0x00 (0000ms, 10671ms total)
T2084 25243:535 JLINK_WriteReg(R6, 0x00000000)  returns 0x00 (0001ms, 10672ms total)
T2084 25243:536 JLINK_WriteReg(R7, 0x00000000)  returns 0x00 (0000ms, 10672ms total)
T2084 25243:536 JLINK_WriteReg(R8, 0x00000000)  returns 0x00 (0000ms, 10672ms total)
T2084 25243:536 JLINK_WriteReg(R9, 0x2000013C)  returns 0x00 (0000ms, 10672ms total)
T2084 25243:536 JLINK_WriteReg(R10, 0x00000000)  returns 0x00 (0000ms, 10672ms total)
T2084 25243:536 JLINK_WriteReg(R11, 0x00000000)  returns 0x00 (0000ms, 10672ms total)
T2084 25243:536 JLINK_WriteReg(R12, 0x00000000)  returns 0x00 (0000ms, 10672ms total)
T2084 25243:536 JLINK_WriteReg(R13 (SP), 0x20001000)  returns 0x00 (0000ms, 10672ms total)
T2084 25243:536 JLINK_WriteReg(R14, 0x20000001)  returns 0x00 (0000ms, 10672ms total)
T2084 25243:536 JLINK_WriteReg(R15 (PC), 0x200000B0)  returns 0x00 (0000ms, 10672ms total)
T2084 25243:536 JLINK_WriteReg(XPSR, 0x01000000)  returns 0x00 (0000ms, 10672ms total)
T2084 25243:536 JLINK_WriteReg(MSP, 0x20001000)  returns 0x00 (0000ms, 10672ms total)
T2084 25243:536 JLINK_WriteReg(PSP, 0x20001000)  returns 0x00 (0000ms, 10672ms total)
T2084 25243:536 JLINK_WriteReg(CFBP, 0x00000000)  returns 0x00 (0000ms, 10672ms total)
T2084 25243:536 JLINK_SetBPEx(Addr = 0x20000000, Type = 0xFFFFFFF2)  returns 0x0000000E (0000ms, 10672ms total)
T2084 25243:536 JLINK_Go() -- CPU_ReadMem(4 bytes @ 0xE0001000) -- CPU_WriteMem(4 bytes @ 0xE0001000) (0006ms, 10678ms total)
T2084 25243:542 JLINK_IsHalted() -- CPU_ReadMem(2 bytes @ 0x20000000)  returns TRUE (0005ms, 10683ms total)
T2084 25243:547 JLINK_ReadReg(R15 (PC))  returns 0x20000000 (0000ms, 10678ms total)
T2084 25243:547 JLINK_ClrBPEx(BPHandle = 0x0000000E)  returns 0x00 (0000ms, 10678ms total)
T2084 25243:547 JLINK_ReadReg(R0)  returns 0x00000001 (0000ms, 10678ms total)
T2084 25243:547 JLINK_WriteReg(R0, 0x08000300)  returns 0x00 (0000ms, 10678ms total)
T2084 25243:547 JLINK_WriteReg(R1, 0x00000080)  returns 0x00 (0000ms, 10678ms total)
T2084 25243:547 JLINK_WriteReg(R2, 0x00000000)  returns 0x00 (0000ms, 10678ms total)
T2084 25243:547 JLINK_WriteReg(R3, 0x00000000)  returns 0x00 (0000ms, 10678ms total)
T2084 25243:547 JLINK_WriteReg(R4, 0x00000000)  returns 0x00 (0000ms, 10678ms total)
T2084 25243:547 JLINK_WriteReg(R5, 0x00000000)  returns 0x00 (0000ms, 10678ms total)
T2084 25243:547 JLINK_WriteReg(R6, 0x00000000)  returns 0x00 (0000ms, 10678ms total)
T2084 25243:547 JLINK_WriteReg(R7, 0x00000000)  returns 0x00 (0001ms, 10679ms total)
T2084 25243:548 JLINK_WriteReg(R8, 0x00000000)  returns 0x00 (0000ms, 10679ms total)
T2084 25243:548 JLINK_WriteReg(R9, 0x2000013C)  returns 0x00 (0000ms, 10679ms total)
T2084 25243:548 JLINK_WriteReg(R10, 0x00000000)  returns 0x00 (0000ms, 10679ms total)
T2084 25243:548 JLINK_WriteReg(R11, 0x00000000)  returns 0x00 (0000ms, 10679ms total)
T2084 25243:548 JLINK_WriteReg(R12, 0x00000000)  returns 0x00 (0000ms, 10679ms total)
T2084 25243:548 JLINK_WriteReg(R13 (SP), 0x20001000)  returns 0x00 (0000ms, 10679ms total)
T2084 25243:548 JLINK_WriteReg(R14, 0x20000001)  returns 0x00 (0000ms, 10679ms total)
T2084 25243:548 JLINK_WriteReg(R15 (PC), 0x2000007A)  returns 0x00 (0000ms, 10679ms total)
T2084 25243:548 JLINK_WriteReg(XPSR, 0x01000000)  returns 0x00 (0000ms, 10679ms total)
T2084 25243:548 JLINK_WriteReg(MSP, 0x20001000)  returns 0x00 (0000ms, 10679ms total)
T2084 25243:548 JLINK_WriteReg(PSP, 0x20001000)  returns 0x00 (0000ms, 10679ms total)
T2084 25243:548 JLINK_WriteReg(CFBP, 0x00000000)  returns 0x00 (0000ms, 10679ms total)
T2084 25243:548 JLINK_SetBPEx(Addr = 0x20000000, Type = 0xFFFFFFF2)  returns 0x0000000F (0000ms, 10679ms total)
T2084 25243:548 JLINK_Go() -- CPU_ReadMem(4 bytes @ 0xE0001000) -- CPU_WriteMem(4 bytes @ 0xE0001000) (0005ms, 10684ms total)
T2084 25243:553 JLINK_IsHalted()  returns FALSE (0001ms, 10685ms total)
T2084 25243:560 JLINK_IsHalted() -- CPU_ReadMem(2 bytes @ 0x20000000)  returns TRUE (0004ms, 10688ms total)
T2084 25243:564 JLINK_ReadReg(R15 (PC))  returns 0x20000000 (0000ms, 10684ms total)
T2084 25243:564 JLINK_ClrBPEx(BPHandle = 0x0000000F)  returns 0x00 (0000ms, 10684ms total)
T2084 25243:564 JLINK_ReadReg(R0)  returns 0x00000000 (0000ms, 10684ms total)
T2084 25243:567 JLINK_WriteReg(R0, 0x08000380)  returns 0x00 (0000ms, 10684ms total)
T2084 25243:567 JLINK_WriteReg(R1, 0x00000080)  returns 0x00 (0000ms, 10684ms total)
T2084 25243:567 JLINK_WriteReg(R2, 0x00000000)  returns 0x00 (0000ms, 10684ms total)
T2084 25243:567 JLINK_WriteReg(R3, 0x00000000)  returns 0x00 (0000ms, 10684ms total)
T2084 25243:567 JLINK_WriteReg(R4, 0x00000000)  returns 0x00 (0000ms, 10684ms total)
T2084 25243:567 JLINK_WriteReg(R5, 0x00000000)  returns 0x00 (0000ms, 10684ms total)
T2084 25243:567 JLINK_WriteReg(R6, 0x00000000)  returns 0x00 (0000ms, 10684ms total)
T2084 25243:567 JLINK_WriteReg(R7, 0x00000000)  returns 0x00 (0000ms, 10684ms total)
T2084 25243:567 JLINK_WriteReg(R8, 0x00000000)  returns 0x00 (0000ms, 10684ms total)
T2084 25243:567 JLINK_WriteReg(R9, 0x2000013C)  returns 0x00 (0000ms, 10684ms total)
T2084 25243:567 JLINK_WriteReg(R10, 0x00000000)  returns 0x00 (0000ms, 10684ms total)
T2084 25243:567 JLINK_WriteReg(R11, 0x00000000)  returns 0x00 (0000ms, 10684ms total)
T2084 25243:567 JLINK_WriteReg(R12, 0x00000000)  returns 0x00 (0000ms, 10684ms total)
T2084 25243:567 JLINK_WriteReg(R13 (SP), 0x20001000)  returns 0x00 (0000ms, 10684ms total)
T2084 25243:567 JLINK_WriteReg(R14, 0x20000001)  returns 0x00 (0000ms, 10684ms total)
T2084 25243:567 JLINK_WriteReg(R15 (PC), 0x200000B0)  returns 0x00 (0000ms, 10684ms total)
T2084 25243:567 JLINK_WriteReg(XPSR, 0x01000000)  returns 0x00 (0000ms, 10684ms total)
T2084 25243:567 JLINK_WriteReg(MSP, 0x20001000)  returns 0x00 (0000ms, 10684ms total)
T2084 25243:567 JLINK_WriteReg(PSP, 0x20001000)  returns 0x00 (0000ms, 10684ms total)
T2084 25243:567 JLINK_WriteReg(CFBP, 0x00000000)  returns 0x00 (0000ms, 10684ms total)
T2084 25243:567 JLINK_SetBPEx(Addr = 0x20000000, Type = 0xFFFFFFF2)  returns 0x00000010 (0000ms, 10684ms total)
T2084 25243:567 JLINK_Go() -- CPU_ReadMem(4 bytes @ 0xE0001000) -- CPU_WriteMem(4 bytes @ 0xE0001000) (0006ms, 10690ms total)
T2084 25243:573 JLINK_IsHalted() -- CPU_ReadMem(2 bytes @ 0x20000000)  returns TRUE (0004ms, 10694ms total)
T2084 25243:577 JLINK_ReadReg(R15 (PC))  returns 0x20000000 (0000ms, 10690ms total)
T2084 25243:577 JLINK_ClrBPEx(BPHandle = 0x00000010)  returns 0x00 (0000ms, 10690ms total)
T2084 25243:577 JLINK_ReadReg(R0)  returns 0x00000001 (0000ms, 10690ms total)
T2084 25243:577 JLINK_WriteReg(R0, 0x08000380)  returns 0x00 (0000ms, 10690ms total)
T2084 25243:577 JLINK_WriteReg(R1, 0x00000080)  returns 0x00 (0000ms, 10690ms total)
T2084 25243:577 JLINK_WriteReg(R2, 0x00000000)  returns 0x00 (0000ms, 10690ms total)
T2084 25243:577 JLINK_WriteReg(R3, 0x00000000)  returns 0x00 (0000ms, 10690ms total)
T2084 25243:577 JLINK_WriteReg(R4, 0x00000000)  returns 0x00 (0000ms, 10690ms total)
T2084 25243:577 JLINK_WriteReg(R5, 0x00000000)  returns 0x00 (0000ms, 10690ms total)
T2084 25243:577 JLINK_WriteReg(R6, 0x00000000)  returns 0x00 (0000ms, 10690ms total)
T2084 25243:577 JLINK_WriteReg(R7, 0x00000000)  returns 0x00 (0000ms, 10690ms total)
T2084 25243:577 JLINK_WriteReg(R8, 0x00000000)  returns 0x00 (0000ms, 10690ms total)
T2084 25243:577 JLINK_WriteReg(R9, 0x2000013C)  returns 0x00 (0000ms, 10690ms total)
T2084 25243:577 JLINK_WriteReg(R10, 0x00000000)  returns 0x00 (0000ms, 10690ms total)
T2084 25243:577 JLINK_WriteReg(R11, 0x00000000)  returns 0x00 (0000ms, 10690ms total)
T2084 25243:577 JLINK_WriteReg(R12, 0x00000000)  returns 0x00 (0000ms, 10690ms total)
T2084 25243:578 JLINK_WriteReg(R13 (SP), 0x20001000)  returns 0x00 (0000ms, 10691ms total)
T2084 25243:578 JLINK_WriteReg(R14, 0x20000001)  returns 0x00 (0000ms, 10691ms total)
T2084 25243:578 JLINK_WriteReg(R15 (PC), 0x2000007A)  returns 0x00 (0000ms, 10691ms total)
T2084 25243:578 JLINK_WriteReg(XPSR, 0x01000000)  returns 0x00 (0000ms, 10691ms total)
